 184.640106 CAN 1 Status:chip status error active  - TxErr: 0 RxErr: 85
 184.640135 1  CF00400x        Rx   d 8 F1 7D FE 00 FE FF F0 FF  Length = 551804 BitCount = 142 ID = 217056256x
 184.640679 CAN 1 Status:chip status error active  - TxErr: 0 RxErr: 84
 184.640707 1  18FF8703x       Rx   d 8 20 4E FF 11 FF FF FF 03  Length = 555789 BitCount = 143 ID = 419399427x
 184.641251 CAN 1 Status:chip status error active  - TxErr: 0 RxErr: 83
 184.641280 1  CFE6CEEx        Rx   d 8 3C CF CF 00 00 00 00 00  Length = 555790 BitCount = 143 ID = 218000622x
 184.641835 CAN 1 Status:chip status error active  - TxErr: 0 RxErr: 82
 184.641864 1  C010303x        Rx   d 8 FF FF 7D FF FF FF FF FF  Length = 567790 BitCount = 146 ID = 201392899x
 184.642411 CAN 1 Status:chip status error active  - TxErr: 0 RxErr: 81
 184.642440 1  18ECFF03x       Rx   d 8 20 22 00 05 FF CA FE 00  Length = 551790 BitCount = 142 ID = 418184963x
 184.642967 CAN 1 Status:chip status error active  - TxErr: 0 RxErr: 80
 184.642996 1  18F0093Ex       Rx   d 8 57 7D 20 77 7D 75 7C 7A  Length = 539789 BitCount = 139 ID = 418384190x
 184.646195 CAN 1 Status:chip status error active  - TxErr: 0 RxErr: 79
 184.646224 1  C000003x        Rx   d 8 F0 FF FF FF FF FF FF 07  Length = 571790 BitCount = 147 ID = 201326595x
 184.646779 CAN 1 Status:chip status error active  - TxErr: 0 RxErr: 78
 184.646808 1  CF00203x        Rx   d 8 CC 00 00 00 FC 00 00 FF  Length = 559790 BitCount = 144 ID = 217055747x
 184.647355 CAN 1 Status:chip status error active  - TxErr: 0 RxErr: 77
 184.647384 1  18FF8703x       Rx   d 8 20 4E FF 11 FF FF FF 24  Length = 551804 BitCount = 142 ID = 419399427x
 184.649651 CAN 1 Status:chip status error active  - TxErr: 0 RxErr: 76
 184.649680 1  CF00400x        Rx   d 8 F1 7D FE 00 FE FF F0 FF  Length = 551789 BitCount = 142 ID = 217056256x
 184.650228 CAN 1 Status:chip status error active  - TxErr: 0 RxErr: 75
 184.650256 1  18ECFF27x       Rx   d 8 20 12 00 03 FF CA FE 00  Length = 547789 BitCount = 141 ID = 418184999x
 184.650852 CAN 1 Status:chip status error active  - TxErr: 0 RxErr: 74
 184.650881 1  18FEF227x       Rx   d 8 00 FE 00 00 00 FF FF FF  Length = 567790 BitCount = 146 ID = 419361319x
 184.652448 CAN 1 Status:chip status error active  - TxErr: 0 RxErr: 73
 184.652477 1  18F0093Ex       Rx   d 8 57 7D 20 77 7D 60 7C 7A  Length = 539789 BitCount = 139 ID = 418384190x
 184.655680 CAN 1 Status:chip status error active  - TxErr: 0 RxErr: 72
 184.655709 1  18FEBF0Bx       Rx   d 8 00 00 7D 7D 7D 7D FF FF  Length = 563789 BitCount = 145 ID = 419348235x
 184.656612 CAN 1 Status:chip status error active  - TxErr: 0 RxErr: 71
 184.656641 1  C000003x        Rx   d 8 F0 FF FF FF FF FF FF 30  Length = 563789 BitCount = 145 ID = 201326595x
 184.657196 CAN 1 Status:chip status error active  - TxErr: 0 RxErr: 70
 184.657225 1  CF00203x        Rx   d 8 CC 00 00 00 FC 00 00 FF  Length = 559790 BitCount = 144 ID = 217055747x
 184.657772 CAN 1 Status:chip status error active  - TxErr: 0 RxErr: 69
 184.657801 1  18FF8703x       Rx   d 8 20 4E FF 11 FF FF FF 35  Length = 551804 BitCount = 142 ID = 419399427x
 184.659705 CAN 1 Status:chip status error active  - TxErr: 0 RxErr: 68
 184.659733 1  18FFFF27x       Rx   d 8 3F FF FF FF FF FF 00 97  Length = 567789 BitCount = 146 ID = 419430183x
 184.660293 CAN 1 Status:chip status error active  - TxErr: 0 RxErr: 67
 184.660322 1  CF00400x        Rx   d 8 F1 7D FE 00 FE FF F0 FF  Length = 551789 BitCount = 142 ID = 217056256x
 184.660865 CAN 1 Status:chip status error active  - TxErr: 0 RxErr: 66
 184.660894 1  CFE6CEEx        Rx   d 8 3C CF CF 00 00 00 00 00  Length = 555789 BitCount = 143 ID = 218000622x
 184.661449 CAN 1 Status:chip status error active  - TxErr: 0 RxErr: 65
 184.661478 1  1CFEC703x       Rx   d 8 FF FF FF FF FF FC 00 00  Length = 567789 BitCount = 146 ID = 486459139x
 184.662461 CAN 1 Status:chip status error active  - TxErr: 0 RxErr: 64
 184.662490 1  18F0093Ex       Rx   d 8 57 7D 20 77 7D 60 7C 7A  Length = 539805 BitCount = 139 ID = 418384190x
 184.666249 CAN 1 Status:chip status error active  - TxErr: 0 RxErr: 63
 184.666278 1  C000003x        Rx   d 8 F0 FF FF FF FF FF FF 41  Length = 563790 BitCount = 145 ID = 201326595x
 184.666833 CAN 1 Status:chip status error active  - TxErr: 0 RxErr: 62
 184.666862 1  CF00203x        Rx   d 8 CC 00 00 00 FC 00 00 FF  Length = 559790 BitCount = 144 ID = 217055747x
 184.667409 CAN 1 Status:chip status error active  - TxErr: 0 RxErr: 61
 184.667438 1  18FF8703x       Rx   d 8 20 4E FF 11 FF FF FF 46  Length = 551789 BitCount = 142 ID = 419399427x
 184.667969 CAN 1 Status:chip status error active  - TxErr: 0 RxErr: 60
 184.667998 1  18F02D03x       Rx   d 8 FF FF 1E 7D 2C 79 C3 FF  Length = 535321 BitCount = 138 ID = 418393347x
 184.669466 CAN 1 Status:chip status error active  - TxErr: 0 RxErr: 59
 184.669495 1  18FFA127x       Rx   d 8 FF 01 AA AA C0 13 FF 0F  Length = 543789 BitCount = 140 ID = 419406119x
 184.670062 CAN 1 Status:chip status error active  - TxErr: 0 RxErr: 58
 184.670091 1  CF00300x        Rx   d 8 F1 00 FE FF FF FF FE FF  Length = 555789 BitCount = 143 ID = 217056000x
 184.670654 CAN 1 Status:chip status error active  - TxErr: 0 RxErr: 57
 184.670683 1  CF00400x        Rx   d 8 F1 7D FE 00 FE FF F0 FF  Length = 551805 BitCount = 142 ID = 217056256x
 184.671259 CAN 1 Status:chip status error active  - TxErr: 0 RxErr: 56
 184.671288 1  18FEDF00x       Rx   d 8 FE FF FF FF 7E FF FF FF  Length = 567789 BitCount = 146 ID = 419356416x
 184.671863 CAN 1 Status:chip status error active  - TxErr: 0 RxErr: 55
 184.671892 1  18FF5A27x       Rx   d 8 59 F9 FF FF D0 5E 02 00  Length = 547789 BitCount = 141 ID = 419387943x
 184.672511 CAN 1 Status:chip status error active  - TxErr: 0 RxErr: 54
 184.672540 1  C00000Bx        Rx   d 8 F8 FF FF FA FC FF FF 54  Length = 555789 BitCount = 143 ID = 201326603x
 184.673083 CAN 1 Status:chip status error active  - TxErr: 0 RxErr: 53
 184.673112 1  C000021x        Rx   d 8 D0 FF FA 7D FC FF FF 04  Length = 551789 BitCount = 142 ID = 201326625x
 184.673651 CAN 1 Status:chip status error active  - TxErr: 0 RxErr: 52
 184.673680 1  C0000E6x        Rx   d 8 D0 FF FA 7D FC FF FF 6F  Length = 547789 BitCount = 141 ID = 201326822x
 184.674235 CAN 1 Status:chip status error active  - TxErr: 0 RxErr: 51
 184.674264 1  C00270Bx        Rx   d 8 00 00 00 00 00 00 00 00  Length = 563789 BitCount = 145 ID = 201336587x
 184.674807 CAN 1 Status:chip status error active  - TxErr: 0 RxErr: 50
 184.674836 1  C010305x        Rx   d 8 FF D0 FA FF FF 20 4E 62  Length = 551789 BitCount = 142 ID = 201392901x
 184.675383 CAN 1 Status:chip status error active  - TxErr: 0 RxErr: 49
 184.675412 1  18F0010Bx       Rx   d 8 00 00 DF FF FF 01 FF FF  Length = 555804 BitCount = 143 ID = 418382091x
 184.675963 CAN 1 Status:chip status error active  - TxErr: 0 RxErr: 48
 184.675992 1  18F00121x       Rx   d 8 FF FF FF FD FF FF FF FF  Length = 559789 BitCount = 144 ID = 418382113x
 184.676543 CAN 1 Status:chip status error active  - TxErr: 0 RxErr: 47
 184.676572 1  18FEBF0Bx       Rx   d 8 00 00 7D 7D 7D 7D FF FF  Length = 563789 BitCount = 145 ID = 419348235x
 184.677124 1  ErrorFrame	Flags = 0xfffe	CodeExt = 0x2132	Code = 0x84	ID = 0x9c000003	DLC = 8	Position = 120	Length = 535750	Data = 0xf0  0xff  0xff  0xff  0xff  0xff  0xff  0x52
 184.677127 CAN 1 Status:chip status error active  - TxErr: 0 RxErr: 48
 184.677167 CAN 1 Status:chip status error active  - TxErr: 0 RxErr: 49
 184.677207 CAN 1 Status:chip status error active  - TxErr: 0 RxErr: 50
 184.677235 CAN 1 Status:chip status error active  - TxErr: 0 RxErr: 58
 184.677248 CAN 1 Status:chip status error active  - TxErr: 0 RxErr: 59
 184.677295 CAN 1 Status:chip status error active  - TxErr: 0 RxErr: 60
 184.677323 CAN 1 Status:chip status error active  - TxErr: 0 RxErr: 68
 184.677343 CAN 1 Status:chip status error active  - TxErr: 0 RxErr: 69
 184.677391 CAN 1 Status:chip status error active  - TxErr: 0 RxErr: 70
 184.677419 CAN 1 Status:chip status error active  - TxErr: 0 RxErr: 78
 184.677439 CAN 1 Status:chip status error active  - TxErr: 0 RxErr: 79
 184.677471 CAN 1 Status:chip status error active  - TxErr: 0 RxErr: 80
 184.677499 CAN 1 Status:chip status error active  - TxErr: 0 RxErr: 88
 184.677507 CAN 1 Status:chip status error active  - TxErr: 0 RxErr: 89
 184.677535 CAN 1 Status:chip status warning level - TxErr: 0 RxErr: 97
 184.677543 CAN 1 Status:chip status warning level - TxErr: 0 RxErr: 98
 184.677571 CAN 1 Status:chip status warning level - TxErr: 0 RxErr: 106
 184.677599 CAN 1 Status:chip status warning level - TxErr: 0 RxErr: 107
 184.677627 CAN 1 Status:chip status warning level - TxErr: 0 RxErr: 115
 184.677635 CAN 1 Status:chip status warning level - TxErr: 0 RxErr: 116
 184.677676 CAN 1 Status:chip status warning level - TxErr: 0 RxErr: 117
 184.677724 CAN 1 Status:chip status warning level - TxErr: 0 RxErr: 118
 184.677764 CAN 1 Status:chip status warning level - TxErr: 0 RxErr: 119
 184.677792 CAN 1 Status:chip status warning level - TxErr: 0 RxErr: 127
 184.677804 CAN 1 Status:chip status error passive - TxErr: 0 RxErr: 128
 184.684610 1  ErrorFrame	Flags = 0xfffe	CodeExt = 0x2223	Code = 0x88	ID = 0	DLC = 8	Position = 0	Length = 3953	Data = 0xf0  0xff  0xff  0xff  0xff  0xff  0xff  0x52
 184.684654 1  ErrorFrame	Flags = 0xfffe	CodeExt = 0x2066	Code = 0x81	ID = 0x9c000003	DLC = 8	Position = 10	Length = 47953	Data = 0xf0  0xff  0xff  0xff  0xff  0xff  0xff  0x52
 184.685182 1  ErrorFrame	Flags = 0xfffe	CodeExt = 0x223a	Code = 0x88	ID = 0x9c000003	DLC = 8	Position = 142	Length = 575953	Data = 0xf0  0xff  0xff  0xff  0xff  0xff  0xff  0x52
 184.685770 1  ErrorFrame	Flags = 0xfffe	CodeExt = 0x2229	Code = 0x88	ID = 0x9c000003	DLC = 8	Position = 289	Length = 1163953	Data = 0xf0  0xff  0xff  0xff  0xff  0xff  0xff  0x52
 184.686354 1  ErrorFrame	Flags = 0xfffe	CodeExt = 0x223a	Code = 0x88	ID = 0x9c000003	DLC = 8	Position = 435	Length = 1747953	Data = 0xf0  0xff  0xff  0xff  0xff  0xff  0xff  0x52
 184.686938 1  ErrorFrame	Flags = 0xfffe	CodeExt = 0x222a	Code = 0x88	ID = 0x9c000003	DLC = 8	Position = 581	Length = 2331953	Data = 0xf0  0xff  0xff  0xff  0xff  0xff  0xff  0x52
 184.687518 1  ErrorFrame	Flags = 0xfffe	CodeExt = 0x223a	Code = 0x88	ID = 0x9c000003	DLC = 8	Position = 726	Length = 2911953	Data = 0xf0  0xff  0xff  0xff  0xff  0xff  0xff  0x52
 184.689661 CAN 1 Status:chip status warning level - TxErr: 0 RxErr: 127
 184.689690 1  CF00400x        Rx   d 8 F1 7D FE 00 FE FF F0 FF  Length = 551789 BitCount = 142 ID = 217056256x
 184.691682 CAN 1 Status:chip status warning level - TxErr: 0 RxErr: 126
 184.691710 1  18FF56FBx       Rx   d 8 00 00 00 02 00 00 00 00  Length = 571805 BitCount = 147 ID = 419387131x
 184.692470 CAN 1 Status:chip status warning level - TxErr: 0 RxErr: 125
 184.692498 1  18F0093Ex       Rx   d 8 57 7D 20 73 7D 60 7C 7A  Length = 539805 BitCount = 139 ID = 418384190x
 184.695745 CAN 1 Status:chip status warning level - TxErr: 0 RxErr: 124
 184.695774 1  18FEBF0Bx       Rx   d 8 00 00 7D 7D 7D 7D FF FF  Length = 563804 BitCount = 145 ID = 419348235x
 184.696614 CAN 1 Status:chip status warning level - TxErr: 0 RxErr: 123
 184.696643 1  C000003x        Rx   d 8 F0 FF FF FF FF FF FF 74  Length = 563789 BitCount = 145 ID = 201326595x
 184.697198 CAN 1 Status:chip status warning level - TxErr: 0 RxErr: 122
 184.697227 1  CF00203x        Rx   d 8 CC 00 00 00 FC 00 00 FF  Length = 559790 BitCount = 144 ID = 217055747x
 184.697774 CAN 1 Status:chip status warning level - TxErr: 0 RxErr: 121
 184.697803 1  18FF8703x       Rx   d 8 20 4E FF 11 FF FF FF 79  Length = 551789 BitCount = 142 ID = 419399427x
 184.699666 CAN 1 Status:chip status warning level - TxErr: 0 RxErr: 120
 184.699695 1  CF00400x        Rx   d 8 F1 7D FE 00 FE FF F0 FF  Length = 551804 BitCount = 142 ID = 217056256x
 184.700234 CAN 1 Status:chip status warning level - TxErr: 0 RxErr: 119
 184.700263 1  18EBFF27x       Rx   d 8 01 04 FF 22 EE E3 81 52  Length = 535789 BitCount = 138 ID = 418119463x
 184.700807 CAN 1 Status:chip status warning level - TxErr: 0 RxErr: 118
 184.700836 1  CFE6CEEx        Rx   d 8 3C CF CF 00 00 00 00 00  Length = 555789 BitCount = 143 ID = 218000622x
 184.701383 CAN 1 Status:chip status warning level - TxErr: 0 RxErr: 117
 184.701412 1  18F00027x       Rx   d 8 F0 7D FF FF FF FF FF 4B  Length = 559789 BitCount = 144 ID = 418381863x
 184.702059 CAN 1 Status:chip status warning level - TxErr: 0 RxErr: 116
 184.702087 1  18EBFF03x       Rx   d 8 01 D4 FF BE 00 08 02 01  Length = 551306 BitCount = 142 ID = 418119427x
 184.702615 CAN 1 Status:chip status warning level - TxErr: 0 RxErr: 115
 184.702644 1  18F0093Ex       Rx   d 8 57 7D 20 73 7D 60 7C 7A  Length = 539805 BitCount = 139 ID = 418384190x
 184.706235 CAN 1 Status:chip status warning level - TxErr: 0 RxErr: 114
 184.706264 1  C000003x        Rx   d 8 F0 FF FF FF FF FF FF 05  Length = 563301 BitCount = 145 ID = 201326595x
 184.706819 CAN 1 Status:chip status warning level - TxErr: 0 RxErr: 113
 184.706848 1  CF00203x        Rx   d 8 CC 00 00 00 FC 00 00 FF  Length = 559317 BitCount = 144 ID = 217055747x
 184.707395 CAN 1 Status:chip status warning level - TxErr: 0 RxErr: 112
 184.707424 1  18FF8703x       Rx   d 8 20 4E FF 11 FF FF FF 8A  Length = 551805 BitCount = 142 ID = 419399427x
 184.709719 CAN 1 Status:chip status warning level - TxErr: 0 RxErr: 111
 184.709748 1  CF00400x        Rx   d 8 F1 7D FE 00 FE FF F0 FF  Length = 551789 BitCount = 142 ID = 217056256x
 184.712472 CAN 1 Status:chip status warning level - TxErr: 0 RxErr: 110
 184.712501 1  18F0093Ex       Rx   d 8 57 7D 20 73 7D 75 7C 7A  Length = 535790 BitCount = 138 ID = 418384190x
 184.716740 CAN 1 Status:chip status warning level - TxErr: 0 RxErr: 109
 184.716769 1  C000003x        Rx   d 8 F0 FF FF FF FF FF FF 16  Length = 559789 BitCount = 144 ID = 201326595x
 184.717320 CAN 1 Status:chip status warning level - TxErr: 0 RxErr: 108
 184.717349 1  18FEAD0Bx       Rx   d 8 00 00 00 00 00 00 FF FF  Length = 563789 BitCount = 145 ID = 419343627x
 184.717895 CAN 1 Status:chip status warning level - TxErr: 0 RxErr: 107
 184.717924 1  CF00203x        Rx   d 8 CC 00 00 00 FC 00 00 FF  Length = 559301 BitCount = 144 ID = 217055747x
 184.718476 CAN 1 Status:chip status warning level - TxErr: 0 RxErr: 106
 184.718505 1  18FEBF0Bx       Rx   d 8 00 00 7D 7D 7D 7D FF FF  Length = 563789 BitCount = 145 ID = 419348235x
 184.719044 CAN 1 Status:chip status warning level - TxErr: 0 RxErr: 105
 184.719073 1  18FF8703x       Rx   d 8 20 4E FF 11 FF FF FF 9B  Length = 551790 BitCount = 142 ID = 419399427x
 184.719821 CAN 1 Status:chip status warning level - TxErr: 0 RxErr: 104
 184.719849 1  CF00300x        Rx   d 8 F1 00 FE FF FF FF FE FF  Length = 555789 BitCount = 143 ID = 217056000x
 184.720433 CAN 1 Status:chip status warning level - TxErr: 0 RxErr: 103
 184.720462 1  CF00400x        Rx   d 8 F1 7D FE 00 FE FF F0 FF  Length = 551790 BitCount = 142 ID = 217056256x
 184.721005 CAN 1 Status:chip status warning level - TxErr: 0 RxErr: 102
 184.721034 1  CFE6CEEx        Rx   d 8 3C CF CF 00 00 00 00 00  Length = 555789 BitCount = 143 ID = 218000622x
 184.721573 CAN 1 Status:chip status warning level - TxErr: 0 RxErr: 101
 184.721602 1  18F00029x       Rx   d 8 F0 FF 7D F0 FF FF C0 FE  Length = 551790 BitCount = 142 ID = 418381865x
 184.722493 CAN 1 Status:chip status warning level - TxErr: 0 RxErr: 100
 184.722522 1  C010305x        Rx   d 8 FF D0 FA FF FF 20 4E 73  Length = 547805 BitCount = 141 ID = 201392901x
 184.723049 CAN 1 Status:chip status warning level - TxErr: 0 RxErr: 99
 184.723078 1  18F0093Ex       Rx   d 8 57 7D 20 73 7D 75 7C 7A  Length = 535789 BitCount = 138 ID = 418384190x
 184.726649 CAN 1 Status:chip status warning level - TxErr: 0 RxErr: 98
 184.726678 1  C000003x        Rx   d 8 F0 FF FF FF FF FF FF 07  Length = 571790 BitCount = 147 ID = 201326595x
 184.727233 CAN 1 Status:chip status warning level - TxErr: 0 RxErr: 97
 184.727262 1  CF00203x        Rx   d 8 CC 00 00 00 FC 00 00 FF  Length = 559804 BitCount = 144 ID = 217055747x
 184.727814 CAN 1 Status:chip status warning level - TxErr: 0 RxErr: 96
 184.727843 1  18FF8703x       Rx   d 8 20 4E FF 11 FF FF FF AC  Length = 555805 BitCount = 143 ID = 419399427x
 184.729674 CAN 1 Status:chip status error active  - TxErr: 0 RxErr: 95
 184.729703 1  CF00400x        Rx   d 8 F1 7D FE 00 FE FF F0 FF  Length = 551789 BitCount = 142 ID = 217056256x
 184.732450 CAN 1 Status:chip status error active  - TxErr: 0 RxErr: 94
 184.732479 1  18F0093Ex       Rx   d 8 57 7D 20 77 7D 60 7C 7A  Length = 539789 BitCount = 139 ID = 418384190x
 184.735985 CAN 1 Status:chip status error active  - TxErr: 0 RxErr: 93
 184.736014 1  18FEBF0Bx       Rx   d 8 00 00 7D 7D 7D 7D FF FF  Length = 563301 BitCount = 145 ID = 419348235x
 184.736618 CAN 1 Status:chip status error active  - TxErr: 0 RxErr: 92
 184.736647 1  C000003x        Rx   d 8 F0 FF FF FF FF FF FF 30  Length = 563789 BitCount = 145 ID = 201326595x
 184.737202 CAN 1 Status:chip status error active  - TxErr: 0 RxErr: 91
 184.737231 1  CF00203x        Rx   d 8 CC 00 00 00 FC 00 00 FF  Length = 559805 BitCount = 144 ID = 217055747x
 184.737778 CAN 1 Status:chip status error active  - TxErr: 0 RxErr: 90
 184.737807 1  18F00503x       Rx   d 8 7D FF FF 7D 7D 7D 7E FF  Length = 551804 BitCount = 142 ID = 418383107x
 184.738365 CAN 1 Status:chip status error active  - TxErr: 0 RxErr: 89
 184.738394 1  18FE4A03x       Rx   d 8 FF FC FF FF FF FF FF FF  Length = 563301 BitCount = 145 ID = 419318275x
 184.738946 CAN 1 Status:chip status error active  - TxErr: 0 RxErr: 88
 184.738975 1  18FF8503x       Rx   d 8 05 00 00 7D FD 7D C0 FC  Length = 555804 BitCount = 143 ID = 419398915x
 184.739530 CAN 1 Status:chip status error active  - TxErr: 0 RxErr: 87
 184.739559 1  18FDA403x       Rx   d 8 FF FF 0F FF FF FF FF FF  Length = 559790 BitCount = 144 ID = 419275779x
 184.740098 CAN 1 Status:chip status error active  - TxErr: 0 RxErr: 86
 184.740127 1  CF00400x        Rx   d 8 F1 7D FE 00 FE FF F0 FF  Length = 551790 BitCount = 142 ID = 217056256x
 184.740666 CAN 1 Status:chip status error active  - TxErr: 0 RxErr: 85
 184.740695 1  18FF8703x       Rx   d 8 20 4E FF 11 FF FF FF BD  Length = 551789 BitCount = 142 ID = 419399427x
 184.741238 CAN 1 Status:chip status error active  - TxErr: 0 RxErr: 84
 184.741267 1  CFE6CEEx        Rx   d 8 3C CF CF 00 00 00 00 00  Length = 555789 BitCount = 143 ID = 218000622x
 184.741822 CAN 1 Status:chip status error active  - TxErr: 0 RxErr: 83
 184.741851 1  C010303x        Rx   d 8 FF FF 7D FF FF FF FF FF  Length = 567789 BitCount = 146 ID = 201392899x
 184.742470 CAN 1 Status:chip status error active  - TxErr: 0 RxErr: 82
 184.742499 1  18F0093Ex       Rx   d 8 57 7D 20 77 7D 60 7C 7A  Length = 539321 BitCount = 139 ID = 418384190x
 184.746230 CAN 1 Status:chip status error active  - TxErr: 0 RxErr: 81
 184.746259 1  C000003x        Rx   d 8 F0 FF FF FF FF FF FF 41  Length = 563805 BitCount = 145 ID = 201326595x
 184.746815 CAN 1 Status:chip status error active  - TxErr: 0 RxErr: 80
 184.746843 1  CF00203x        Rx   d 8 CC 00 00 00 FC 00 00 FF  Length = 559789 BitCount = 144 ID = 217055747x
 184.747390 CAN 1 Status:chip status error active  - TxErr: 0 RxErr: 79
 184.747419 1  18FF8703x       Rx   d 8 20 4E FF 11 FF FF FF CE  Length = 551805 BitCount = 142 ID = 419399427x
 184.749647 CAN 1 Status:chip status error active  - TxErr: 0 RxErr: 78
 184.749676 1  CF00400x        Rx   d 8 F1 7D FE 00 FE FF F0 FF  Length = 551789 BitCount = 142 ID = 217056256x
 184.750211 CAN 1 Status:chip status error active  - TxErr: 0 RxErr: 77
 184.750240 1  18EBFF27x       Rx   d 8 02 EE 23 81 52 EE 03 81  Length = 531789 BitCount = 137 ID = 418119463x
 184.750831 CAN 1 Status:chip status error active  - TxErr: 0 RxErr: 76
 184.750860 1  18FEF227x       Rx   d 8 00 FE 00 00 00 FF FF FF  Length = 567805 BitCount = 146 ID = 419361319x
 184.752448 CAN 1 Status:chip status error active  - TxErr: 0 RxErr: 75
 184.752477 1  18F0093Ex       Rx   d 8 57 7D 20 77 7D 75 7C 7A  Length = 539790 BitCount = 139 ID = 418384190x
 184.753028 CAN 1 Status:chip status error active  - TxErr: 0 RxErr: 74
 184.753057 1  18FF50FBx       Rx   d 8 58 40 00 00 00 00 00 04  Length = 563790 BitCount = 145 ID = 419385595x
 184.755696 CAN 1 Status:chip status error active  - TxErr: 0 RxErr: 73
 184.755725 1  18FEBF0Bx       Rx   d 8 00 00 7D 7D 7D 7D FF FF  Length = 563789 BitCount = 145 ID = 419348235x
 184.756600 CAN 1 Status:chip status error active  - TxErr: 0 RxErr: 72
 184.756629 1  C000003x        Rx   d 8 F0 FF FF FF FF FF FF 52  Length = 559790 BitCount = 144 ID = 201326595x
 184.757183 CAN 1 Status:chip status error active  - TxErr: 0 RxErr: 71
 184.757212 1  CF00203x        Rx   d 8 CC 00 00 00 FC 00 00 FF  Length = 559302 BitCount = 144 ID = 217055747x
 184.757764 CAN 1 Status:chip status error active  - TxErr: 0 RxErr: 70
 184.757793 1  18FF8703x       Rx   d 8 20 4E FF 11 FF FF FF DF  Length = 555790 BitCount = 143 ID = 419399427x
 184.759720 CAN 1 Status:chip status error active  - TxErr: 0 RxErr: 69
 184.759749 1  18FFFF27x       Rx   d 8 3F FF FF FF FF FF 00 97  Length = 567805 BitCount = 146 ID = 419430183x
 184.760308 CAN 1 Status:chip status error active  - TxErr: 0 RxErr: 68
 184.760337 1  CF00400x        Rx   d 8 F1 7D FE 00 FE FF F0 FF  Length = 551789 BitCount = 142 ID = 217056256x
 184.760881 CAN 1 Status:chip status error active  - TxErr: 0 RxErr: 67
 184.760910 1  CFE6CEEx        Rx   d 8 3C CF CF 00 00 00 00 00  Length = 555790 BitCount = 143 ID = 218000622x
 184.761465 CAN 1 Status:chip status error active  - TxErr: 0 RxErr: 66
 184.761494 1  1CFEC703x       Rx   d 8 FF FF FF FF FF FC 00 00  Length = 567789 BitCount = 146 ID = 486459139x
 184.762197 CAN 1 Status:chip status error active  - TxErr: 0 RxErr: 65
 184.762226 1  18EBFF03x       Rx   d 8 02 02 08 02 D2 0B 04 07  Length = 551305 BitCount = 142 ID = 418119427x
 184.762753 CAN 1 Status:chip status error active  - TxErr: 0 RxErr: 64
 184.762782 1  18F0093Ex       Rx   d 8 57 7D 20 77 7D 75 7C 7A  Length = 539790 BitCount = 139 ID = 418384190x
 184.766177 CAN 1 Status:chip status error active  - TxErr: 0 RxErr: 63
 184.766206 1  C000003x        Rx   d 8 F0 FF FF FF FF FF FF 63  Length = 559301 BitCount = 144 ID = 201326595x
 184.766761 CAN 1 Status:chip status error active  - TxErr: 0 RxErr: 62
 184.766790 1  CF00203x        Rx   d 8 CC 00 00 00 FC 00 00 FF  Length = 559317 BitCount = 144 ID = 217055747x
 184.767341 CAN 1 Status:chip status error active  - TxErr: 0 RxErr: 61
 184.767370 1  18FF8703x       Rx   d 8 20 4E FF 11 FF FF FF D0  Length = 555804 BitCount = 143 ID = 419399427x
 184.767901 CAN 1 Status:chip status error active  - TxErr: 0 RxErr: 60
 184.767930 1  18F02D03x       Rx   d 8 FF FF 1E 7D 2C 79 C3 FF  Length = 535805 BitCount = 138 ID = 418393347x
 184.769437 CAN 1 Status:chip status error active  - TxErr: 0 RxErr: 59
 184.769466 1  18FFA127x       Rx   d 8 FF 01 AA AA C0 13 FF 0F  Length = 543789 BitCount = 140 ID = 419406119x
 184.770030 CAN 1 Status:chip status error active  - TxErr: 0 RxErr: 58
 184.770059 1  CF00300x        Rx   d 8 F1 00 FE FF FF FF FE FF  Length = 555789 BitCount = 143 ID = 217056000x
 184.770622 CAN 1 Status:chip status error active  - TxErr: 0 RxErr: 57
 184.770651 1  CF00400x        Rx   d 8 F1 7D FE 00 FE FF F0 FF  Length = 551789 BitCount = 142 ID = 217056256x
 184.771250 CAN 1 Status:chip status error active  - TxErr: 0 RxErr: 56
 184.771279 1  18FEDF00x       Rx   d 8 FE FF FF FF 7E FF FF FF  Length = 567805 BitCount = 146 ID = 419356416x
 184.771847 CAN 1 Status:chip status error active  - TxErr: 0 RxErr: 55
 184.771876 1  18FF5A27x       Rx   d 8 59 F9 FF FF D0 5E 02 00  Length = 547789 BitCount = 141 ID = 419387943x
 184.772507 CAN 1 Status:chip status error active  - TxErr: 0 RxErr: 54
 184.772536 1  C00000Bx        Rx   d 8 F8 FF FF FA FC FF FF 65  Length = 555789 BitCount = 143 ID = 201326603x
 184.773075 CAN 1 Status:chip status error active  - TxErr: 0 RxErr: 53
 184.773104 1  C000021x        Rx   d 8 D0 FF FA 7D FC FF FF 15  Length = 547805 BitCount = 141 ID = 201326625x
 184.773643 CAN 1 Status:chip status error active  - TxErr: 0 RxErr: 52
 184.773672 1  C0000E6x        Rx   d 8 D0 FF FA 7D FC FF FF 6F  Length = 547789 BitCount = 141 ID = 201326822x
 184.774227 CAN 1 Status:chip status error active  - TxErr: 0 RxErr: 51
 184.774256 1  C00270Bx        Rx   d 8 00 00 00 00 00 00 00 00  Length = 563789 BitCount = 145 ID = 201336587x
 184.774803 CAN 1 Status:chip status error active  - TxErr: 0 RxErr: 50
 184.774832 1  C010305x        Rx   d 8 FF D0 FA FF FF 20 4E 04  Length = 555789 BitCount = 143 ID = 201392901x
 184.775379 CAN 1 Status:chip status error active  - TxErr: 0 RxErr: 49
 184.775408 1  18F0010Bx       Rx   d 8 00 00 DF FF FF 01 FF FF  Length = 555789 BitCount = 143 ID = 418382091x
 184.775959 CAN 1 Status:chip status error active  - TxErr: 0 RxErr: 48
 184.775988 1  18F00121x       Rx   d 8 FF FF FF FD FF FF FF FF  Length = 559789 BitCount = 144 ID = 418382113x
 184.776539 CAN 1 Status:chip status error active  - TxErr: 0 RxErr: 47
 184.776568 1  18FEBF0Bx       Rx   d 8 00 00 7D 7D 7D 7D FF FF  Length = 563789 BitCount = 145 ID = 419348235x
 184.777124 1  ErrorFrame	Flags = 0xfffe	CodeExt = 0x2132	Code = 0x84	ID = 0x9c000003	DLC = 8	Position = 120	Length = 539765	Data = 0xf0  0xff  0xff  0xff  0xff  0xff  0xff  0x74
 184.777127 CAN 1 Status:chip status error active  - TxErr: 0 RxErr: 48
 184.777167 CAN 1 Status:chip status error active  - TxErr: 0 RxErr: 49
 184.777207 CAN 1 Status:chip status error active  - TxErr: 0 RxErr: 50
 184.777235 CAN 1 Status:chip status error active  - TxErr: 0 RxErr: 58
 184.777247 CAN 1 Status:chip status error active  - TxErr: 0 RxErr: 59
 184.777295 CAN 1 Status:chip status error active  - TxErr: 0 RxErr: 60
 184.777323 CAN 1 Status:chip status error active  - TxErr: 0 RxErr: 68
 184.777343 CAN 1 Status:chip status error active  - TxErr: 0 RxErr: 69
 184.777391 CAN 1 Status:chip status error active  - TxErr: 0 RxErr: 70
 184.777419 CAN 1 Status:chip status error active  - TxErr: 0 RxErr: 78
 184.777439 CAN 1 Status:chip status error active  - TxErr: 0 RxErr: 79
 184.777471 CAN 1 Status:chip status error active  - TxErr: 0 RxErr: 80
 184.777499 CAN 1 Status:chip status error active  - TxErr: 0 RxErr: 88
 184.777507 CAN 1 Status:chip status error active  - TxErr: 0 RxErr: 89
 184.777535 CAN 1 Status:chip status warning level - TxErr: 0 RxErr: 97
 184.777543 CAN 1 Status:chip status warning level - TxErr: 0 RxErr: 98
 184.777571 CAN 1 Status:chip status warning level - TxErr: 0 RxErr: 106
 184.777599 CAN 1 Status:chip status warning level - TxErr: 0 RxErr: 107
 184.777627 CAN 1 Status:chip status warning level - TxErr: 0 RxErr: 115
 184.777635 CAN 1 Status:chip status warning level - TxErr: 0 RxErr: 116
 184.777675 CAN 1 Status:chip status warning level - TxErr: 0 RxErr: 117
 184.777723 CAN 1 Status:chip status warning level - TxErr: 0 RxErr: 118
 184.777763 CAN 1 Status:chip status warning level - TxErr: 0 RxErr: 119
 184.777791 CAN 1 Status:chip status warning level - TxErr: 0 RxErr: 127
 184.777803 CAN 1 Status:chip status error passive - TxErr: 0 RxErr: 128
 184.784609 1  ErrorFrame	Flags = 0xfffe	CodeExt = 0x223a	Code = 0x88	ID = 0x9c000003	DLC = 8	Position = 967	Length = 8025312	Data = 0xf0  0xff  0xff  0xff  0xff  0xff  0xff  0x74
 184.785181 1  ErrorFrame	Flags = 0xfffe	CodeExt = 0x222a	Code = 0x88	ID = 0x9c000003	DLC = 8	Position = 86	Length = 8597312	Data = 0xf0  0xff  0xff  0xff  0xff  0xff  0xff  0x74
 184.786345 CAN 1 Status:chip status warning level - TxErr: 0 RxErr: 127
 184.786374 1  C000003x        Rx   d 8 F0 FF FF FF FF FF FF 05  Length = 563789 BitCount = 145 ID = 201326595x
 184.786929 CAN 1 Status:chip status warning level - TxErr: 0 RxErr: 126
 184.786957 1  CF00203x        Rx   d 8 CC 00 00 00 FC 00 00 FF  Length = 559789 BitCount = 144 ID = 217055747x
 184.787508 CAN 1 Status:chip status warning level - TxErr: 0 RxErr: 125
 184.787537 1  18FF8503x       Rx   d 8 05 00 00 7D FD 7D C0 FC  Length = 555305 BitCount = 143 ID = 419398915x
 184.788089 CAN 1 Status:chip status warning level - TxErr: 0 RxErr: 124
 184.788118 1  18FF8703x       Rx   d 8 20 4E FF 11 FF FF FF F2  Length = 555790 BitCount = 143 ID = 419399427x
 184.789681 CAN 1 Status:chip status warning level - TxErr: 0 RxErr: 123
 184.789710 1  CF00400x        Rx   d 8 F1 7D FE 00 FE FF F0 FF  Length = 551790 BitCount = 142 ID = 217056256x
 184.792453 CAN 1 Status:chip status warning level - TxErr: 0 RxErr: 122
 184.792482 1  18F0093Ex       Rx   d 8 57 7D 20 73 7D 60 7C 7A  Length = 539789 BitCount = 139 ID = 418384190x
 184.795745 CAN 1 Status:chip status warning level - TxErr: 0 RxErr: 121
 184.795774 1  18FEBF0Bx       Rx   d 8 00 00 7D 7D 7D 7D FF FF  Length = 563789 BitCount = 145 ID = 419348235x
 184.796609 CAN 1 Status:chip status warning level - TxErr: 0 RxErr: 120
 184.796638 1  C000003x        Rx   d 8 F0 FF FF FF FF FF FF 16  Length = 559805 BitCount = 144 ID = 201326595x
 184.797193 CAN 1 Status:chip status warning level - TxErr: 0 RxErr: 119
 184.797222 1  CF00203x        Rx   d 8 CC 00 00 00 FC 00 00 FF  Length = 559789 BitCount = 144 ID = 217055747x
 184.797773 CAN 1 Status:chip status warning level - TxErr: 0 RxErr: 118
 184.797802 1  18FF8703x       Rx   d 8 20 4E FF 11 FF FF FF 03  Length = 555789 BitCount = 143 ID = 419399427x
 184.799622 CAN 1 Status:chip status warning level - TxErr: 0 RxErr: 117
 184.799651 1  CF00400x        Rx   d 8 F1 7D FE 00 FE FF F0 FF  Length = 551789 BitCount = 142 ID = 217056256x
 184.800202 CAN 1 Status:chip status warning level - TxErr: 0 RxErr: 116
 184.800231 1  18EBFF27x       Rx   d 8 03 42 F4 60 81 FF FF FF  Length = 547789 BitCount = 141 ID = 418119463x
 184.800231 1  J1939TP FECAp        6    0  27  -   Rx   d 12 04 FF 22 EE E3 81 52 EE 23 81 52 EE 03 81 42 F4 60 81
 184.800774 CAN 1 Status:chip status warning level - TxErr: 0 RxErr: 115
 184.800803 1  CFE6CEEx        Rx   d 8 3C CF CF 00 00 00 00 00  Length = 555790 BitCount = 143 ID = 218000622x
 184.801350 CAN 1 Status:chip status warning level - TxErr: 0 RxErr: 114
 184.801379 1  18F00027x       Rx   d 8 F0 7D FF FF FF FF FF 4B  Length = 559789 BitCount = 144 ID = 418381863x
 184.802418 CAN 1 Status:chip status warning level - TxErr: 0 RxErr: 113
 184.802447 1  18F0093Ex       Rx   d 8 57 7D 20 73 7D 60 7C 7A  Length = 539789 BitCount = 139 ID = 418384190x
 184.806174 CAN 1 Status:chip status warning level - TxErr: 0 RxErr: 112
 184.806203 1  C000003x        Rx   d 8 F0 FF FF FF FF FF FF 07  Length = 571790 BitCount = 147 ID = 201326595x
 184.806759 CAN 1 Status:chip status warning level - TxErr: 0 RxErr: 111
 184.806787 1  CF00203x        Rx   d 8 CC 00 00 00 FC 00 00 FF  Length = 559789 BitCount = 144 ID = 217055747x
 184.807335 CAN 1 Status:chip status warning level - TxErr: 0 RxErr: 110
 184.807364 1  18FF8703x       Rx   d 8 20 4E FF 11 FF FF FF 24  Length = 551805 BitCount = 142 ID = 419399427x
 184.809715 CAN 1 Status:chip status warning level - TxErr: 0 RxErr: 109
 184.809744 1  CF00400x        Rx   d 8 F1 7D FE 00 FE FF F0 FF  Length = 551789 BitCount = 142 ID = 217056256x
 184.812471 CAN 1 Status:chip status warning level - TxErr: 0 RxErr: 108
 184.812500 1  18F0093Ex       Rx   d 8 57 7D 20 73 7D 60 7C 7A  Length = 539789 BitCount = 139 ID = 418384190x
 184.816742 CAN 1 Status:chip status warning level - TxErr: 0 RxErr: 107
 184.816771 1  C000003x        Rx   d 8 F0 FF FF FF FF FF FF 30  Length = 563302 BitCount = 145 ID = 201326595x
 184.817323 CAN 1 Status:chip status warning level - TxErr: 0 RxErr: 106
 184.817352 1  18FEAD0Bx       Rx   d 8 00 00 00 00 00 00 FF FF  Length = 563789 BitCount = 145 ID = 419343627x
 184.817899 CAN 1 Status:chip status warning level - TxErr: 0 RxErr: 105
 184.817928 1  CF00203x        Rx   d 8 CC 00 00 00 FC 00 00 FF  Length = 559789 BitCount = 144 ID = 217055747x
 184.818479 CAN 1 Status:chip status warning level - TxErr: 0 RxErr: 104
 184.818508 1  18FEBF0Bx       Rx   d 8 00 00 7D 7D 7D 7D FF FF  Length = 563804 BitCount = 145 ID = 419348235x
 184.819047 CAN 1 Status:chip status warning level - TxErr: 0 RxErr: 103
 184.819076 1  18FF8703x       Rx   d 8 20 4E FF 11 FF FF FF 35  Length = 551789 BitCount = 142 ID = 419399427x
 184.819868 CAN 1 Status:chip status warning level - TxErr: 0 RxErr: 102
 184.819897 1  CF00300x        Rx   d 8 F1 00 FE FF FF FF FE FF  Length = 555805 BitCount = 143 ID = 217056000x
 184.820452 CAN 1 Status:chip status warning level - TxErr: 0 RxErr: 101
 184.820481 1  CF00400x        Rx   d 8 F1 7D FE 00 FE FF F0 FF  Length = 551790 BitCount = 142 ID = 217056256x
 184.821024 CAN 1 Status:chip status warning level - TxErr: 0 RxErr: 100
 184.821053 1  CFE6CEEx        Rx   d 8 3C CF CF 00 00 00 00 00  Length = 555789 BitCount = 143 ID = 218000622x
 184.821592 CAN 1 Status:chip status warning level - TxErr: 0 RxErr: 99
 184.821621 1  18F00029x       Rx   d 8 F0 FF 7D F0 FF FF C0 FE  Length = 551789 BitCount = 142 ID = 418381865x
 184.822148 CAN 1 Status:chip status warning level - TxErr: 0 RxErr: 98
 184.822177 1  18EBFF03x       Rx   d 8 03 1D 0D 08 02 5C 00 08  Length = 539789 BitCount = 139 ID = 418119427x
 184.822712 CAN 1 Status:chip status warning level - TxErr: 0 RxErr: 97
 184.822741 1  C010305x        Rx   d 8 FF D0 FA FF FF 20 4E 15  Length = 547804 BitCount = 141 ID = 201392901x
 184.823272 CAN 1 Status:chip status warning level - TxErr: 0 RxErr: 96
 184.823301 1  18F0093Ex       Rx   d 8 57 7D 20 73 7D 60 7C 7A  Length = 539789 BitCount = 139 ID = 418384190x
 184.826716 CAN 1 Status:chip status error active  - TxErr: 0 RxErr: 95
 184.826745 1  C000003x        Rx   d 8 F0 FF FF FF FF FF FF 41  Length = 563789 BitCount = 145 ID = 201326595x
 184.827301 CAN 1 Status:chip status error active  - TxErr: 0 RxErr: 94
 184.827330 1  CF00203x        Rx   d 8 CC 00 00 00 FC 00 00 FF  Length = 559789 BitCount = 144 ID = 217055747x
 184.827877 CAN 1 Status:chip status error active  - TxErr: 0 RxErr: 93
 184.827906 1  18FF8703x       Rx   d 8 20 4E FF 11 FF FF FF 46  Length = 551789 BitCount = 142 ID = 419399427x
 184.829665 CAN 1 Status:chip status error active  - TxErr: 0 RxErr: 92
 184.829694 1  CF00400x        Rx   d 8 F1 7D FE 00 FE FF F0 FF  Length = 551805 BitCount = 142 ID = 217056256x
 184.832449 CAN 1 Status:chip status error active  - TxErr: 0 RxErr: 91
 184.832478 1  18F0093Ex       Rx   d 8 57 7D 20 73 7D 60 7C 7A  Length = 539789 BitCount = 139 ID = 418384190x
 184.835997 CAN 1 Status:chip status error active  - TxErr: 0 RxErr: 90
 184.836026 1  18FEBF0Bx       Rx   d 8 00 00 7D 7D 7D 7D FF FF  Length = 563789 BitCount = 145 ID = 419348235x
 184.836597 CAN 1 Status:chip status error active  - TxErr: 0 RxErr: 89
 184.836626 1  C000003x        Rx   d 8 F0 FF FF FF FF FF FF 52  Length = 559790 BitCount = 144 ID = 201326595x
 184.837181 CAN 1 Status:chip status error active  - TxErr: 0 RxErr: 88
 184.837210 1  CF00203x        Rx   d 8 CC 00 00 00 FC 00 00 FF  Length = 559804 BitCount = 144 ID = 217055747x
 184.837757 CAN 1 Status:chip status error active  - TxErr: 0 RxErr: 87
 184.837786 1  18F00503x       Rx   d 8 7D FF FF 7D 7D 7D 7E FF  Length = 551790 BitCount = 142 ID = 418383107x
 184.838345 CAN 1 Status:chip status error active  - TxErr: 0 RxErr: 86
 184.838374 1  18FE4A03x       Rx   d 8 FF FC FF FF FF FF FF FF  Length = 563301 BitCount = 145 ID = 419318275x
 184.838925 CAN 1 Status:chip status error active  - TxErr: 0 RxErr: 85
 184.838954 1  18FF8503x       Rx   d 8 05 00 00 7D FD 7D C0 FC  Length = 555805 BitCount = 143 ID = 419398915x
 184.839509 CAN 1 Status:chip status error active  - TxErr: 0 RxErr: 84
 184.839538 1  18FDA403x       Rx   d 8 FF FF 0F FF FF FF FF FF  Length = 559789 BitCount = 144 ID = 419275779x
 184.840078 CAN 1 Status:chip status error active  - TxErr: 0 RxErr: 83
 184.840107 1  CF00400x        Rx   d 8 F1 7D FE 00 FE FF F0 FF  Length = 551790 BitCount = 142 ID = 217056256x
 184.840646 CAN 1 Status:chip status error active  - TxErr: 0 RxErr: 82
 184.840675 1  18FF8703x       Rx   d 8 20 4E FF 11 FF FF FF 57  Length = 551789 BitCount = 142 ID = 419399427x
 184.841218 CAN 1 Status:chip status error active  - TxErr: 0 RxErr: 81
 184.841247 1  CFE6CEEx        Rx   d 8 3C CF CF 00 00 00 00 00  Length = 555789 BitCount = 143 ID = 218000622x
 184.841802 CAN 1 Status:chip status error active  - TxErr: 0 RxErr: 80
 184.841831 1  C010303x        Rx   d 8 FF FF 7D FF FF FF FF FF  Length = 567789 BitCount = 146 ID = 201392899x
 184.842466 CAN 1 Status:chip status error active  - TxErr: 0 RxErr: 79
 184.842495 1  18F0093Ex       Rx   d 8 57 7D 20 73 7D 60 7C 7A  Length = 539305 BitCount = 139 ID = 418384190x
 184.846170 CAN 1 Status:chip status error active  - TxErr: 0 RxErr: 78
 184.846199 1  C000003x        Rx   d 8 F0 FF FF FF FF FF FF 63  Length = 559790 BitCount = 144 ID = 201326595x
 184.846754 CAN 1 Status:chip status error active  - TxErr: 0 RxErr: 77
 184.846783 1  CF00203x        Rx   d 8 CC 00 00 00 FC 00 00 FF  Length = 559804 BitCount = 144 ID = 217055747x
 184.847334 CAN 1 Status:chip status error active  - TxErr: 0 RxErr: 76
 184.847363 1  18FF8703x       Rx   d 8 20 4E FF 11 FF FF FF 68  Length = 555790 BitCount = 143 ID = 419399427x
 184.849679 CAN 1 Status:chip status error active  - TxErr: 0 RxErr: 75
 184.849707 1  CF00400x        Rx   d 8 F1 7D FE 00 FE FF F0 FF  Length = 551789 BitCount = 142 ID = 217056256x
 184.850283 CAN 1 Status:chip status error active  - TxErr: 0 RxErr: 74
 184.850312 1  18FEF227x       Rx   d 8 00 FE 00 00 00 FF FF FF  Length = 567805 BitCount = 146 ID = 419361319x
 184.852446 CAN 1 Status:chip status error active  - TxErr: 0 RxErr: 73
 184.852475 1  18F0093Ex       Rx   d 8 57 7D 20 73 7D 60 7C 7A  Length = 539306 BitCount = 139 ID = 418384190x
 184.855719 CAN 1 Status:chip status error active  - TxErr: 0 RxErr: 72
 184.855748 1  18FEBF0Bx       Rx   d 8 00 00 7D 7D 7D 7D FF FF  Length = 563789 BitCount = 145 ID = 419348235x
 184.856606 CAN 1 Status:chip status error active  - TxErr: 0 RxErr: 71
 184.856635 1  C000003x        Rx   d 8 F0 FF FF FF FF FF FF 74  Length = 563302 BitCount = 145 ID = 201326595x
 184.857191 CAN 1 Status:chip status error active  - TxErr: 0 RxErr: 70
 184.857220 1  CF00203x        Rx   d 8 CC 00 00 00 FC 00 00 FF  Length = 559804 BitCount = 144 ID = 217055747x
 184.857767 CAN 1 Status:chip status error active  - TxErr: 0 RxErr: 69
 184.857796 1  18FF8703x       Rx   d 8 20 4E FF 11 FF FF FF 79  Length = 551790 BitCount = 142 ID = 419399427x
 184.859871 CAN 1 Status:chip status error active  - TxErr: 0 RxErr: 68
 184.859900 1  CF00400x        Rx   d 8 F1 7D FE 00 FE FF F0 FF  Length = 551790 BitCount = 142 ID = 217056256x
 184.860508 CAN 1 Status:chip status error active  - TxErr: 0 RxErr: 67
 184.860537 1  1CFEC703x       Rx   d 8 FF FF FF FF FF FC 00 00  Length = 567789 BitCount = 146 ID = 486459139x
 184.861080 CAN 1 Status:chip status error active  - TxErr: 0 RxErr: 66
 184.861109 1  CFE6CEEx        Rx   d 8 3C CF CF 00 00 00 00 00  Length = 555789 BitCount = 143 ID = 218000622x
 184.862464 CAN 1 Status:chip status error active  - TxErr: 0 RxErr: 65
 184.862493 1  18F0093Ex       Rx   d 8 57 7D 20 73 7D 60 7C 7A  Length = 539789 BitCount = 139 ID = 418384190x
 184.866236 CAN 1 Status:chip status error active  - TxErr: 0 RxErr: 64
 184.866265 1  C000003x        Rx   d 8 F0 FF FF FF FF FF FF 05  Length = 563790 BitCount = 145 ID = 201326595x
 184.866820 CAN 1 Status:chip status error active  - TxErr: 0 RxErr: 63
 184.866849 1  CF00203x        Rx   d 8 CC 00 00 00 FC 00 00 FF  Length = 559789 BitCount = 144 ID = 217055747x
 184.867396 CAN 1 Status:chip status error active  - TxErr: 0 RxErr: 62
 184.867425 1  18FF8703x       Rx   d 8 20 4E FF 11 FF FF FF 8A  Length = 551790 BitCount = 142 ID = 419399427x
 184.867956 CAN 1 Status:chip status error active  - TxErr: 0 RxErr: 61
 184.867985 1  18F02D03x       Rx   d 8 FF FF 1E 7D 2C 79 C3 FF  Length = 535789 BitCount = 138 ID = 418393347x
 184.869444 CAN 1 Status:chip status error active  - TxErr: 0 RxErr: 60
 184.869473 1  18FFA127x       Rx   d 8 FF 01 AA AA C0 13 FF 0F  Length = 543789 BitCount = 140 ID = 419406119x
 184.870037 CAN 1 Status:chip status error active  - TxErr: 0 RxErr: 59
 184.870066 1  CF00300x        Rx   d 8 F1 00 FE FF FF FF FE FF  Length = 555805 BitCount = 143 ID = 217056000x
 184.870629 CAN 1 Status:chip status error active  - TxErr: 0 RxErr: 58
 184.870658 1  CF00400x        Rx   d 8 F1 7D FE 00 FE FF F0 FF  Length = 551789 BitCount = 142 ID = 217056256x
 184.871257 CAN 1 Status:chip status error active  - TxErr: 0 RxErr: 57
 184.871286 1  18FEDF00x       Rx   d 8 FE FF FF FF 7E FF FF FF  Length = 567789 BitCount = 146 ID = 419356416x
 184.871849 CAN 1 Status:chip status error active  - TxErr: 0 RxErr: 56
 184.871878 1  18FF5A27x       Rx   d 8 59 F9 FF FF D0 5E 02 00  Length = 547805 BitCount = 141 ID = 419387943x
 184.872494 CAN 1 Status:chip status error active  - TxErr: 0 RxErr: 55
 184.872523 1  18FFFF27x       Rx   d 8 3F FF FF FF FF FF 00 97  Length = 567789 BitCount = 146 ID = 419430183x
 184.873066 CAN 1 Status:chip status error active  - TxErr: 0 RxErr: 54
 184.873095 1  C00000Bx        Rx   d 8 F8 FF FF FA FC FF FF 76  Length = 555789 BitCount = 143 ID = 201326603x
 184.873638 CAN 1 Status:chip status error active  - TxErr: 0 RxErr: 53
 184.873667 1  C000021x        Rx   d 8 D0 FF FA 7D FC FF FF 26  Length = 551805 BitCount = 142 ID = 201326625x
 184.874206 CAN 1 Status:chip status error active  - TxErr: 0 RxErr: 52
 184.874235 1  C0000E6x        Rx   d 8 D0 FF FA 7D FC FF FF 6F  Length = 547789 BitCount = 141 ID = 201326822x
 184.874790 CAN 1 Status:chip status error active  - TxErr: 0 RxErr: 51
 184.874819 1  C00270Bx        Rx   d 8 00 00 00 00 00 00 00 00  Length = 563805 BitCount = 145 ID = 201336587x
 184.875362 CAN 1 Status:chip status error active  - TxErr: 0 RxErr: 50
 184.875391 1  C010305x        Rx   d 8 FF D0 FA FF FF 20 4E 36  Length = 551805 BitCount = 142 ID = 201392901x
 184.875938 CAN 1 Status:chip status error active  - TxErr: 0 RxErr: 49
 184.875967 1  18F0010Bx       Rx   d 8 00 00 DF FF FF 01 FF FF  Length = 555789 BitCount = 143 ID = 418382091x
 184.876518 CAN 1 Status:chip status error active  - TxErr: 0 RxErr: 48
 184.876547 1  18FEBF0Bx       Rx   d 8 00 00 7D 7D 7D 7D FF FF  Length = 563789 BitCount = 145 ID = 419348235x
 184.877099 1  ErrorFrame	Flags = 0xfffe	CodeExt = 0x2132	Code = 0x84	ID = 0x9c000003	DLC = 8	Position = 120	Length = 535750	Data = 0xf0  0xff  0xff  0xff  0xff  0xff  0xff  0x16
 184.877102 CAN 1 Status:chip status error active  - TxErr: 0 RxErr: 49
 184.877142 CAN 1 Status:chip status error active  - TxErr: 0 RxErr: 50
 184.877182 CAN 1 Status:chip status error active  - TxErr: 0 RxErr: 51
 184.877210 CAN 1 Status:chip status error active  - TxErr: 0 RxErr: 59
 184.877222 CAN 1 Status:chip status error active  - TxErr: 0 RxErr: 60
 184.877254 CAN 1 Status:chip status error active  - TxErr: 0 RxErr: 61
 184.877282 CAN 1 Status:chip status error active  - TxErr: 0 RxErr: 69
 184.877290 CAN 1 Status:chip status error active  - TxErr: 0 RxErr: 70
 184.877322 CAN 1 Status:chip status error active  - TxErr: 0 RxErr: 71
 184.877370 CAN 1 Status:chip status error active  - TxErr: 0 RxErr: 72
 184.877418 CAN 1 Status:chip status error active  - TxErr: 0 RxErr: 73
 184.877446 CAN 1 Status:chip status error active  - TxErr: 0 RxErr: 81
 184.877470 CAN 1 Status:chip status error active  - TxErr: 0 RxErr: 82
 184.877518 CAN 1 Status:chip status error active  - TxErr: 0 RxErr: 83
 184.877566 CAN 1 Status:chip status error active  - TxErr: 0 RxErr: 84
 184.877606 CAN 1 Status:chip status error active  - TxErr: 0 RxErr: 85
 184.877646 CAN 1 Status:chip status error active  - TxErr: 0 RxErr: 86
 184.878246 CAN 1 Status:chip status error active  - TxErr: 0 RxErr: 85
 184.878275 1  CF00203x        Rx   d 8 CC 00 00 00 FC 00 00 FF  Length = 559789 BitCount = 144 ID = 217055747x
 184.878802 CAN 1 Status:chip status error active  - TxErr: 0 RxErr: 84
 184.878831 1  18F0093Ex       Rx   d 8 57 7D 20 77 7D 75 7C 7A  Length = 539789 BitCount = 139 ID = 418384190x
 184.879371 CAN 1 Status:chip status error active  - TxErr: 0 RxErr: 83
 184.879399 1  18FF8703x       Rx   d 8 20 4E FF 11 FF FF FF 9B  Length = 551805 BitCount = 142 ID = 419399427x
 184.879944 1  ErrorFrame	Flags = 0xfffe	CodeExt = 0x2132	Code = 0x84	ID = 0x9cf00400	DLC = 8	Position = 120	Length = 527750	Data = 0xf1  0x7d  0xfe  0  0xfe  0xff  0xf0  0xff
 184.879947 CAN 1 Status:chip status error active  - TxErr: 0 RxErr: 84
 184.879987 CAN 1 Status:chip status error active  - TxErr: 0 RxErr: 85
 184.880031 CAN 1 Status:chip status error active  - TxErr: 0 RxErr: 86
 184.880059 CAN 1 Status:chip status error active  - TxErr: 0 RxErr: 94
 184.880067 CAN 1 Status:chip status error active  - TxErr: 0 RxErr: 95
 184.880099 CAN 1 Status:chip status warning level - TxErr: 0 RxErr: 96
 184.880127 CAN 1 Status:chip status warning level - TxErr: 0 RxErr: 104
 184.880135 CAN 1 Status:chip status warning level - TxErr: 0 RxErr: 105
 184.880167 CAN 1 Status:chip status warning level - TxErr: 0 RxErr: 106
 184.880215 CAN 1 Status:chip status warning level - TxErr: 0 RxErr: 107
 184.880263 CAN 1 Status:chip status warning level - TxErr: 0 RxErr: 108
 184.880311 CAN 1 Status:chip status warning level - TxErr: 0 RxErr: 109
 184.880359 CAN 1 Status:chip status warning level - TxErr: 0 RxErr: 110
 184.880407 CAN 1 Status:chip status warning level - TxErr: 0 RxErr: 111
 184.880451 CAN 1 Status:chip status warning level - TxErr: 0 RxErr: 112
 184.880487 CAN 1 Status:chip status warning level - TxErr: 0 RxErr: 113
 184.880515 CAN 1 Status:chip status warning level - TxErr: 0 RxErr: 121
 184.881087 CAN 1 Status:chip status warning level - TxErr: 0 RxErr: 120
 184.881116 1  CFE6CEEx        Rx   d 8 3C CF CF 00 00 00 00 00  Length = 555789 BitCount = 143 ID = 218000622x
 184.881671 CAN 1 Status:chip status warning level - TxErr: 0 RxErr: 119
 184.881700 1  18FDA521x       Rx   d 8 3C FF FF FF FF FF FF FF  Length = 567789 BitCount = 146 ID = 419276065x
 184.882239 CAN 1 Status:chip status warning level - TxErr: 0 RxErr: 118
 184.882268 1  18EBFF03x       Rx   d 8 04 02 08 02 08 02 6E 00  Length = 551789 BitCount = 142 ID = 418119427x
 184.882811 CAN 1 Status:chip status warning level - TxErr: 0 RxErr: 117
 184.882840 1  18FDC40Bx       Rx   d 8 1C 00 19 03 00 00 00 00  Length = 555789 BitCount = 143 ID = 419283979x
 184.883399 CAN 1 Status:chip status warning level - TxErr: 0 RxErr: 116
 184.883428 1  18FEEF00x       Rx   d 8 FE FF FE FE FF FF FF FF  Length = 571789 BitCount = 147 ID = 419360512x
 184.883956 CAN 1 Status:chip status warning level - TxErr: 0 RxErr: 115
 184.883984 1  18F0093Ex       Rx   d 8 57 7D 20 77 7D 75 7C 7A  Length = 539789 BitCount = 139 ID = 418384190x
 184.884528 CAN 1 Status:chip status warning level - TxErr: 0 RxErr: 114
 184.884557 1  18FEF100x       Rx   d 8 57 00 00 00 00 FF E3 3F  Length = 555789 BitCount = 143 ID = 419361024x
 184.885100 CAN 1 Status:chip status warning level - TxErr: 0 RxErr: 113
 184.885129 1  18FE4E21x       Rx   d 8 F0 FF FF FF FF FF FF FF  Length = 555790 BitCount = 143 ID = 419319329x
 184.885692 CAN 1 Status:chip status warning level - TxErr: 0 RxErr: 112
 184.885721 1  18FE4F3Ex       Rx   d 8 04 00 03 00 00 00 00 00  Length = 567789 BitCount = 146 ID = 419319614x
 184.886280 CAN 1 Status:chip status warning level - TxErr: 0 RxErr: 111
 184.886309 1  C000003x        Rx   d 8 F0 FF FF FF FF FF FF 07  Length = 571805 BitCount = 147 ID = 201326595x
 184.886840 CAN 1 Status:chip status warning level - TxErr: 0 RxErr: 110
 184.886869 1  18FF0B21x       Rx   d 8 DC C0 00 00 5D 3C 0C C5  Length = 543789 BitCount = 140 ID = 419367713x
 184.887416 CAN 1 Status:chip status warning level - TxErr: 0 RxErr: 109
 184.887445 1  CF00203x        Rx   d 8 CC 00 00 00 FC 00 00 FF  Length = 559790 BitCount = 144 ID = 217055747x
 184.887981 CAN 1 Status:chip status warning level - TxErr: 0 RxErr: 108
 184.888010 1  18FF0E21x       Rx   d 8 7D 00 30 7D 04 03 90 AD  Length = 547789 BitCount = 141 ID = 419368481x
 184.888553 CAN 1 Status:chip status warning level - TxErr: 0 RxErr: 107
 184.888582 1  18FF8503x       Rx   d 8 05 00 00 7D FD 7D C0 FC  Length = 555789 BitCount = 143 ID = 419398915x
 184.889132 CAN 1 Status:chip status warning level - TxErr: 0 RxErr: 106
 184.889161 1  1CFEC321x       Rx   d 8 FF FF FF FF FF FF FF FF  Length = 563301 BitCount = 145 ID = 486458145x
 184.889706 1  ErrorFrame	Flags = 0xfffe	CodeExt = 0x2132	Code = 0x84	ID = 0x9cf00400	DLC = 8	Position = 120	Length = 527750	Data = 0xf1  0x7d  0xfe  0  0xfe  0xff  0xf0  0xff
 184.889709 CAN 1 Status:chip status warning level - TxErr: 0 RxErr: 107
 184.889749 CAN 1 Status:chip status warning level - TxErr: 0 RxErr: 108
 184.889793 CAN 1 Status:chip status warning level - TxErr: 0 RxErr: 109
 184.889825 CAN 1 Status:chip status warning level - TxErr: 0 RxErr: 110
 184.889853 CAN 1 Status:chip status warning level - TxErr: 0 RxErr: 118
 184.889877 CAN 1 Status:chip status warning level - TxErr: 0 RxErr: 119
 184.889905 CAN 1 Status:chip status warning level - TxErr: 0 RxErr: 127
 184.889933 CAN 1 Status:chip status error passive - TxErr: 0 RxErr: 128
 184.892449 CAN 1 Status:chip status warning level - TxErr: 0 RxErr: 127
 184.892478 1  18F0093Ex       Rx   d 8 57 7D 20 73 7D 60 7C 7A  Length = 539789 BitCount = 139 ID = 418384190x
 184.895733 CAN 1 Status:chip status warning level - TxErr: 0 RxErr: 126
 184.895762 1  18FEBF0Bx       Rx   d 8 00 00 7D 7D 7D 7D FF FF  Length = 563805 BitCount = 145 ID = 419348235x
 184.896621 CAN 1 Status:chip status warning level - TxErr: 0 RxErr: 125
 184.896650 1  C000003x        Rx   d 8 F0 FF FF FF FF FF FF 30  Length = 563805 BitCount = 145 ID = 201326595x
 184.897205 CAN 1 Status:chip status warning level - TxErr: 0 RxErr: 124
 184.897234 1  CF00203x        Rx   d 8 CC 00 00 00 FC 00 00 FF  Length = 559789 BitCount = 144 ID = 217055747x
 184.897782 CAN 1 Status:chip status warning level - TxErr: 0 RxErr: 123
 184.897811 1  18FF8703x       Rx   d 8 20 4E FF 11 FF FF FF BD  Length = 551805 BitCount = 142 ID = 419399427x
 184.899634 CAN 1 Status:chip status warning level - TxErr: 0 RxErr: 122
 184.899663 1  CF00400x        Rx   d 8 F1 7D FE 00 FE FF F0 FF  Length = 551805 BitCount = 142 ID = 217056256x
 184.900226 CAN 1 Status:chip status warning level - TxErr: 0 RxErr: 121
 184.900255 1  18F00027x       Rx   d 8 F0 7D FF FF FF FF FF 4B  Length = 559789 BitCount = 144 ID = 418381863x
 184.900798 CAN 1 Status:chip status warning level - TxErr: 0 RxErr: 120
 184.900827 1  CFE6CEEx        Rx   d 8 3C CF CF 00 00 00 00 00  Length = 555789 BitCount = 143 ID = 218000622x
 184.902422 CAN 1 Status:chip status warning level - TxErr: 0 RxErr: 119
 184.902451 1  18F0093Ex       Rx   d 8 57 7D 20 73 7D 60 7C 7A  Length = 539789 BitCount = 139 ID = 418384190x
 184.906218 CAN 1 Status:chip status warning level - TxErr: 0 RxErr: 118
 184.906247 1  C000003x        Rx   d 8 F0 FF FF FF FF FF FF 41  Length = 563790 BitCount = 145 ID = 201326595x
 184.906802 CAN 1 Status:chip status warning level - TxErr: 0 RxErr: 117
 184.906831 1  CF00203x        Rx   d 8 CC 00 00 00 FC 00 00 FF  Length = 559790 BitCount = 144 ID = 217055747x
 184.907378 CAN 1 Status:chip status warning level - TxErr: 0 RxErr: 116
 184.907407 1  18FF8703x       Rx   d 8 20 4E FF 11 FF FF FF CE  Length = 551789 BitCount = 142 ID = 419399427x
 184.909759 CAN 1 Status:chip status warning level - TxErr: 0 RxErr: 115
 184.909787 1  CF00400x        Rx   d 8 F1 7D FE 00 FE FF F0 FF  Length = 551789 BitCount = 142 ID = 217056256x
 184.912471 CAN 1 Status:chip status warning level - TxErr: 0 RxErr: 114
 184.912500 1  18F0093Ex       Rx   d 8 57 7D 20 73 7D 60 7C 7A  Length = 539790 BitCount = 139 ID = 418384190x
 184.916727 CAN 1 Status:chip status warning level - TxErr: 0 RxErr: 113
 184.916756 1  C000003x        Rx   d 8 F0 FF FF FF FF FF FF 52  Length = 559789 BitCount = 144 ID = 201326595x
 184.917307 CAN 1 Status:chip status warning level - TxErr: 0 RxErr: 112
 184.917336 1  18FEAD0Bx       Rx   d 8 00 00 00 00 00 00 FF FF  Length = 563789 BitCount = 145 ID = 419343627x
 184.917883 CAN 1 Status:chip status warning level - TxErr: 0 RxErr: 111
 184.917912 1  CF00203x        Rx   d 8 CC 00 00 00 FC 00 00 FF  Length = 559789 BitCount = 144 ID = 217055747x
 184.918463 CAN 1 Status:chip status warning level - TxErr: 0 RxErr: 110
 184.918492 1  18FEBF0Bx       Rx   d 8 00 00 7D 7D 7D 7D FF FF  Length = 563789 BitCount = 145 ID = 419348235x
 184.919035 CAN 1 Status:chip status warning level - TxErr: 0 RxErr: 109
 184.919064 1  18FF8703x       Rx   d 8 20 4E FF 11 FF FF FF DF  Length = 555790 BitCount = 143 ID = 419399427x
 184.919807 CAN 1 Status:chip status warning level - TxErr: 0 RxErr: 108
 184.919836 1  CF00300x        Rx   d 8 F1 00 FE FF FF FF FE FF  Length = 555789 BitCount = 143 ID = 217056000x
 184.920392 CAN 1 Status:chip status warning level - TxErr: 0 RxErr: 107
 184.920421 1  CF00400x        Rx   d 8 F1 7D FE 00 FE FF F0 FF  Length = 551804 BitCount = 142 ID = 217056256x
 184.920964 CAN 1 Status:chip status warning level - TxErr: 0 RxErr: 106
 184.920993 1  CFE6CEEx        Rx   d 8 3C CF CF 00 00 00 00 00  Length = 555789 BitCount = 143 ID = 218000622x
 184.921532 CAN 1 Status:chip status warning level - TxErr: 0 RxErr: 105
 184.921561 1  18F00029x       Rx   d 8 F0 FF 7D F0 FF FF C0 FE  Length = 551790 BitCount = 142 ID = 418381865x
 184.922484 CAN 1 Status:chip status warning level - TxErr: 0 RxErr: 104
 184.922513 1  C010305x        Rx   d 8 FF D0 FA FF FF 20 4E 47  Length = 547790 BitCount = 141 ID = 201392901x
 184.923044 CAN 1 Status:chip status warning level - TxErr: 0 RxErr: 103
 184.923073 1  18F0093Ex       Rx   d 8 57 7D 20 73 7D 60 7C 7A  Length = 539790 BitCount = 139 ID = 418384190x
 184.926624 CAN 1 Status:chip status warning level - TxErr: 0 RxErr: 102
 184.926653 1  C000003x        Rx   d 8 F0 FF FF FF FF FF FF 63  Length = 559316 BitCount = 144 ID = 201326595x
 184.927208 CAN 1 Status:chip status warning level - TxErr: 0 RxErr: 101
 184.927237 1  CF00203x        Rx   d 8 CC 00 00 00 FC 00 00 FF  Length = 559790 BitCount = 144 ID = 217055747x
 184.927788 CAN 1 Status:chip status warning level - TxErr: 0 RxErr: 100
 184.927817 1  18FF8703x       Rx   d 8 20 4E FF 11 FF FF FF D0  Length = 555789 BitCount = 143 ID = 419399427x
 184.929665 CAN 1 Status:chip status warning level - TxErr: 0 RxErr: 99
 184.929694 1  CF00400x        Rx   d 8 F1 7D FE 00 FE FF F0 FF  Length = 551789 BitCount = 142 ID = 217056256x
 184.932445 CAN 1 Status:chip status warning level - TxErr: 0 RxErr: 98
 184.932474 1  18F0093Ex       Rx   d 8 57 7D 20 73 7D 60 7C 7A  Length = 539789 BitCount = 139 ID = 418384190x
 184.935977 CAN 1 Status:chip status warning level - TxErr: 0 RxErr: 97
 184.936006 1  18FEBF0Bx       Rx   d 8 00 00 7D 7D 7D 7D FF FF  Length = 563790 BitCount = 145 ID = 419348235x
 184.936605 CAN 1 Status:chip status warning level - TxErr: 0 RxErr: 96
 184.936634 1  C000003x        Rx   d 8 F0 FF FF FF FF FF FF 74  Length = 563789 BitCount = 145 ID = 201326595x
 184.937189 CAN 1 Status:chip status error active  - TxErr: 0 RxErr: 95
 184.937218 1  CF00203x        Rx   d 8 CC 00 00 00 FC 00 00 FF  Length = 559789 BitCount = 144 ID = 217055747x
 184.937765 CAN 1 Status:chip status error active  - TxErr: 0 RxErr: 94
 184.937794 1  18F00503x       Rx   d 8 7D FF FF 7D 7D 7D 7E FF  Length = 551789 BitCount = 142 ID = 418383107x
 184.938353 CAN 1 Status:chip status error active  - TxErr: 0 RxErr: 93
 184.938382 1  18FE4A03x       Rx   d 8 FF FC FF FF FF FF FF FF  Length = 563789 BitCount = 145 ID = 419318275x
 184.938933 CAN 1 Status:chip status error active  - TxErr: 0 RxErr: 92
 184.938962 1  18FF8503x       Rx   d 8 05 00 00 7D FD 7D C0 FC  Length = 555305 BitCount = 143 ID = 419398915x
 184.939517 CAN 1 Status:chip status error active  - TxErr: 0 RxErr: 91
 184.939546 1  18FDA403x       Rx   d 8 FF FF 0F FF FF FF FF FF  Length = 559789 BitCount = 144 ID = 419275779x
 184.940085 CAN 1 Status:chip status error active  - TxErr: 0 RxErr: 90
 184.940114 1  CF00400x        Rx   d 8 F1 7D FE 00 FE FF F0 FF  Length = 551804 BitCount = 142 ID = 217056256x
 184.940657 CAN 1 Status:chip status error active  - TxErr: 0 RxErr: 89
 184.940686 1  18FF8703x       Rx   d 8 20 4E FF 11 FF FF FF E1  Length = 555317 BitCount = 143 ID = 419399427x
 184.941229 CAN 1 Status:chip status error active  - TxErr: 0 RxErr: 88
 184.941258 1  CFE6CEEx        Rx   d 8 3C CF CF 00 00 00 00 00  Length = 555789 BitCount = 143 ID = 218000622x
 184.941813 CAN 1 Status:chip status error active  - TxErr: 0 RxErr: 87
 184.941842 1  C010303x        Rx   d 8 FF FF 7D FF FF FF FF FF  Length = 567789 BitCount = 146 ID = 201392899x
 184.942382 CAN 1 Status:chip status error active  - TxErr: 0 RxErr: 86
 184.942411 1  18EBFF03x       Rx   d 8 05 08 02 6C 00 08 02 FF  Length = 543789 BitCount = 140 ID = 418119427x
 184.942411 1  J1939TP FECAp        6    0  3   -   Rx   d 22 D4 FF BE 00 08 02 01 02 08 02 D2 0B 04 07 1D 0D 08 02 5C 00 08 02 08 02 08 02 6E 00 08 02 6C 00 08 02
 184.942937 CAN 1 Status:chip status error active  - TxErr: 0 RxErr: 85
 184.942966 1  18F0093Ex       Rx   d 8 57 7D 20 73 7D 60 7C 7A  Length = 539305 BitCount = 139 ID = 418384190x
 184.946238 CAN 1 Status:chip status error active  - TxErr: 0 RxErr: 84
 184.946267 1  C000003x        Rx   d 8 F0 FF FF FF FF FF FF 05  Length = 563789 BitCount = 145 ID = 201326595x
 184.946822 CAN 1 Status:chip status error active  - TxErr: 0 RxErr: 83
 184.946851 1  CF00203x        Rx   d 8 CC 00 00 00 FC 00 00 FF  Length = 559790 BitCount = 144 ID = 217055747x
 184.947402 CAN 1 Status:chip status error active  - TxErr: 0 RxErr: 82
 184.947431 1  18FF8703x       Rx   d 8 20 4E FF 11 FF FF FF F2  Length = 555789 BitCount = 143 ID = 419399427x
 184.949674 CAN 1 Status:chip status error active  - TxErr: 0 RxErr: 81
 184.949703 1  CF00400x        Rx   d 8 F1 7D FE 00 FE FF F0 FF  Length = 551789 BitCount = 142 ID = 217056256x
 184.950278 CAN 1 Status:chip status error active  - TxErr: 0 RxErr: 80
 184.950307 1  18FEF227x       Rx   d 8 00 FE 00 00 00 FF FF FF  Length = 567804 BitCount = 146 ID = 419361319x
 184.952443 CAN 1 Status:chip status error active  - TxErr: 0 RxErr: 79
 184.952472 1  18F0093Ex       Rx   d 8 57 7D 20 73 7D 75 7C 7A  Length = 535789 BitCount = 138 ID = 418384190x
 184.955714 CAN 1 Status:chip status error active  - TxErr: 0 RxErr: 78
 184.955743 1  18FEBF0Bx       Rx   d 8 00 00 7D 7D 7D 7D FF FF  Length = 563317 BitCount = 145 ID = 419348235x
 184.956610 CAN 1 Status:chip status error active  - TxErr: 0 RxErr: 77
 184.956639 1  C000003x        Rx   d 8 F0 FF FF FF FF FF FF 16  Length = 559790 BitCount = 144 ID = 201326595x
 184.957194 CAN 1 Status:chip status error active  - TxErr: 0 RxErr: 76
 184.957223 1  CF00203x        Rx   d 8 CC 00 00 00 FC 00 00 FF  Length = 559789 BitCount = 144 ID = 217055747x
 184.957774 CAN 1 Status:chip status error active  - TxErr: 0 RxErr: 75
 184.957803 1  18FF8703x       Rx   d 8 20 4E FF 11 FF FF FF 03  Length = 555789 BitCount = 143 ID = 419399427x
 184.959851 CAN 1 Status:chip status error active  - TxErr: 0 RxErr: 74
 184.959880 1  CF00400x        Rx   d 8 F1 7D FE 00 FE FF F0 FF  Length = 551804 BitCount = 142 ID = 217056256x
 184.960467 CAN 1 Status:chip status error active  - TxErr: 0 RxErr: 73
 184.960496 1  1CFEC703x       Rx   d 8 FF FF FF FF FF FC 00 00  Length = 567789 BitCount = 146 ID = 486459139x
 184.961039 CAN 1 Status:chip status error active  - TxErr: 0 RxErr: 72
 184.961068 1  CFE6CEEx        Rx   d 8 3C CF CF 00 00 00 00 00  Length = 555790 BitCount = 143 ID = 218000622x
 184.962431 CAN 1 Status:chip status error active  - TxErr: 0 RxErr: 71
 184.962460 1  18F0093Ex       Rx   d 8 57 7D 20 73 7D 75 7C 7A  Length = 535790 BitCount = 138 ID = 418384190x
 184.966187 CAN 1 Status:chip status error active  - TxErr: 0 RxErr: 70
  184.640106 CAN 1 Status:chip status error active  - TxErr: 0 RxErr: 85
 184.640135 1  CF00400x        Rx   d 8 F1 7D FE 00 FE FF F0 FF  Length = 551804 BitCount = 142 ID = 217056256x
 184.640679 CAN 1 Status:chip status error active  - TxErr: 0 RxErr: 84
 184.640707 1  18FF8703x       Rx   d 8 20 4E FF 11 FF FF FF 03  Length = 555789 BitCount = 143 ID = 419399427x
 184.641251 CAN 1 Status:chip status error active  - TxErr: 0 RxErr: 83
 184.641280 1  CFE6CEEx        Rx   d 8 3C CF CF 00 00 00 00 00  Length = 555790 BitCount = 143 ID = 218000622x
 184.641835 CAN 1 Status:chip status error active  - TxErr: 0 RxErr: 82
 184.641864 1  C010303x        Rx   d 8 FF FF 7D FF FF FF FF FF  Length = 567790 BitCount = 146 ID = 201392899x
 184.642411 CAN 1 Status:chip status error active  - TxErr: 0 RxErr: 81
 184.642440 1  18ECFF03x       Rx   d 8 20 22 00 05 FF CA FE 00  Length = 551790 BitCount = 142 ID = 418184963x
 184.642967 CAN 1 Status:chip status error active  - TxErr: 0 RxErr: 80
 184.642996 1  18F0093Ex       Rx   d 8 57 7D 20 77 7D 75 7C 7A  Length = 539789 BitCount = 139 ID = 418384190x
 184.646195 CAN 1 Status:chip status error active  - TxErr: 0 RxErr: 79
 184.646224 1  C000003x        Rx   d 8 F0 FF FF FF FF FF FF 07  Length = 571790 BitCount = 147 ID = 201326595x
 184.646779 CAN 1 Status:chip status error active  - TxErr: 0 RxErr: 78
 184.646808 1  CF00203x        Rx   d 8 CC 00 00 00 FC 00 00 FF  Length = 559790 BitCount = 144 ID = 217055747x
 184.647355 CAN 1 Status:chip status error active  - TxErr: 0 RxErr: 77
 184.647384 1  18FF8703x       Rx   d 8 20 4E FF 11 FF FF FF 24  Length = 551804 BitCount = 142 ID = 419399427x
 184.649651 CAN 1 Status:chip status error active  - TxErr: 0 RxErr: 76
 184.649680 1  CF00400x        Rx   d 8 F1 7D FE 00 FE FF F0 FF  Length = 551789 BitCount = 142 ID = 217056256x
 184.650228 CAN 1 Status:chip status error active  - TxErr: 0 RxErr: 75
 184.650256 1  18ECFF27x       Rx   d 8 20 12 00 03 FF CA FE 00  Length = 547789 BitCount = 141 ID = 418184999x
 184.650852 CAN 1 Status:chip status error active  - TxErr: 0 RxErr: 74
 184.650881 1  18FEF227x       Rx   d 8 00 FE 00 00 00 FF FF FF  Length = 567790 BitCount = 146 ID = 419361319x
 184.652448 CAN 1 Status:chip status error active  - TxErr: 0 RxErr: 73
 184.652477 1  18F0093Ex       Rx   d 8 57 7D 20 77 7D 60 7C 7A  Length = 539789 BitCount = 139 ID = 418384190x
 184.655680 CAN 1 Status:chip status error active  - TxErr: 0 RxErr: 72
 184.655709 1  18FEBF0Bx       Rx   d 8 00 00 7D 7D 7D 7D FF FF  Length = 563789 BitCount = 145 ID = 419348235x
 184.656612 CAN 1 Status:chip status error active  - TxErr: 0 RxErr: 71
 184.656641 1  C000003x        Rx   d 8 F0 FF FF FF FF FF FF 30  Length = 563789 BitCount = 145 ID = 201326595x
 184.657196 CAN 1 Status:chip status error active  - TxErr: 0 RxErr: 70
 184.657225 1  CF00203x        Rx   d 8 CC 00 00 00 FC 00 00 FF  Length = 559790 BitCount = 144 ID = 217055747x
 184.657772 CAN 1 Status:chip status error active  - TxErr: 0 RxErr: 69
 184.657801 1  18FF8703x       Rx   d 8 20 4E FF 11 FF FF FF 35  Length = 551804 BitCount = 142 ID = 419399427x
 184.659705 CAN 1 Status:chip status error active  - TxErr: 0 RxErr: 68
 184.659733 1  18FFFF27x       Rx   d 8 3F FF FF FF FF FF 00 97  Length = 567789 BitCount = 146 ID = 419430183x
 184.660293 CAN 1 Status:chip status error active  - TxErr: 0 RxErr: 67
 184.660322 1  CF00400x        Rx   d 8 F1 7D FE 00 FE FF F0 FF  Length = 551789 BitCount = 142 ID = 217056256x
 184.660865 CAN 1 Status:chip status error active  - TxErr: 0 RxErr: 66
 184.660894 1  CFE6CEEx        Rx   d 8 3C CF CF 00 00 00 00 00  Length = 555789 BitCount = 143 ID = 218000622x
 184.661449 CAN 1 Status:chip status error active  - TxErr: 0 RxErr: 65
 184.661478 1  1CFEC703x       Rx   d 8 FF FF FF FF FF FC 00 00  Length = 567789 BitCount = 146 ID = 486459139x
 184.662461 CAN 1 Status:chip status error active  - TxErr: 0 RxErr: 64
 184.662490 1  18F0093Ex       Rx   d 8 57 7D 20 77 7D 60 7C 7A  Length = 539805 BitCount = 139 ID = 418384190x
 184.666249 CAN 1 Status:chip status error active  - TxErr: 0 RxErr: 63
 184.666278 1  C000003x        Rx   d 8 F0 FF FF FF FF FF FF 41  Length = 563790 BitCount = 145 ID = 201326595x
 184.666833 CAN 1 Status:chip status error active  - TxErr: 0 RxErr: 62
 184.666862 1  CF00203x        Rx   d 8 CC 00 00 00 FC 00 00 FF  Length = 559790 BitCount = 144 ID = 217055747x
 184.667409 CAN 1 Status:chip status error active  - TxErr: 0 RxErr: 61
 184.667438 1  18FF8703x       Rx   d 8 20 4E FF 11 FF FF FF 46  Length = 551789 BitCount = 142 ID = 419399427x
 184.667969 CAN 1 Status:chip status error active  - TxErr: 0 RxErr: 60
 184.667998 1  18F02D03x       Rx   d 8 FF FF 1E 7D 2C 79 C3 FF  Length = 535321 BitCount = 138 ID = 418393347x
 184.669466 CAN 1 Status:chip status error active  - TxErr: 0 RxErr: 59
 184.669495 1  18FFA127x       Rx   d 8 FF 01 AA AA C0 13 FF 0F  Length = 543789 BitCount = 140 ID = 419406119x
 184.670062 CAN 1 Status:chip status error active  - TxErr: 0 RxErr: 58
 184.670091 1  CF00300x        Rx   d 8 F1 00 FE FF FF FF FE FF  Length = 555789 BitCount = 143 ID = 217056000x
 184.670654 CAN 1 Status:chip status error active  - TxErr: 0 RxErr: 57
 184.670683 1  CF00400x        Rx   d 8 F1 7D FE 00 FE FF F0 FF  Length = 551805 BitCount = 142 ID = 217056256x
 184.671259 CAN 1 Status:chip status error active  - TxErr: 0 RxErr: 56
 184.671288 1  18FEDF00x       Rx   d 8 FE FF FF FF 7E FF FF FF  Length = 567789 BitCount = 146 ID = 419356416x
 184.671863 CAN 1 Status:chip status error active  - TxErr: 0 RxErr: 55
 184.671892 1  18FF5A27x       Rx   d 8 59 F9 FF FF D0 5E 02 00  Length = 547789 BitCount = 141 ID = 419387943x
 184.672511 CAN 1 Status:chip status error active  - TxErr: 0 RxErr: 54
 184.672540 1  C00000Bx        Rx   d 8 F8 FF FF FA FC FF FF 54  Length = 555789 BitCount = 143 ID = 201326603x
 184.673083 CAN 1 Status:chip status error active  - TxErr: 0 RxErr: 53
 184.673112 1  C000021x        Rx   d 8 D0 FF FA 7D FC FF FF 04  Length = 551789 BitCount = 142 ID = 201326625x
 184.673651 CAN 1 Status:chip status error active  - TxErr: 0 RxErr: 52
 184.673680 1  C0000E6x        Rx   d 8 D0 FF FA 7D FC FF FF 6F  Length = 547789 BitCount = 141 ID = 201326822x
 184.674235 CAN 1 Status:chip status error active  - TxErr: 0 RxErr: 51
 184.674264 1  C00270Bx        Rx   d 8 00 00 00 00 00 00 00 00  Length = 563789 BitCount = 145 ID = 201336587x
 184.674807 CAN 1 Status:chip status error active  - TxErr: 0 RxErr: 50
 184.674836 1  C010305x        Rx   d 8 FF D0 FA FF FF 20 4E 62  Length = 551789 BitCount = 142 ID = 201392901x
 184.675383 CAN 1 Status:chip status error active  - TxErr: 0 RxErr: 49
 184.675412 1  18F0010Bx       Rx   d 8 00 00 DF FF FF 01 FF FF  Length = 555804 BitCount = 143 ID = 418382091x
 184.675963 CAN 1 Status:chip status error active  - TxErr: 0 RxErr: 48
 184.675992 1  18F00121x       Rx   d 8 FF FF FF FD FF FF FF FF  Length = 559789 BitCount = 144 ID = 418382113x
 184.676543 CAN 1 Status:chip status error active  - TxErr: 0 RxErr: 47
 184.676572 1  18FEBF0Bx       Rx   d 8 00 00 7D 7D 7D 7D FF FF  Length = 563789 BitCount = 145 ID = 419348235x
 184.677124 1  ErrorFrame	Flags = 0xfffe	CodeExt = 0x2132	Code = 0x84	ID = 0x9c000003	DLC = 8	Position = 120	Length = 535750	Data = 0xf0  0xff  0xff  0xff  0xff  0xff  0xff  0x52
 184.677127 CAN 1 Status:chip status error active  - TxErr: 0 RxErr: 48
 184.677167 CAN 1 Status:chip status error active  - TxErr: 0 RxErr: 49
 184.677207 CAN 1 Status:chip status error active  - TxErr: 0 RxErr: 50
 184.677235 CAN 1 Status:chip status error active  - TxErr: 0 RxErr: 58
 184.677248 CAN 1 Status:chip status error active  - TxErr: 0 RxErr: 59
 184.677295 CAN 1 Status:chip status error active  - TxErr: 0 RxErr: 60
 184.677323 CAN 1 Status:chip status error active  - TxErr: 0 RxErr: 68
 184.677343 CAN 1 Status:chip status error active  - TxErr: 0 RxErr: 69
 184.677391 CAN 1 Status:chip status error active  - TxErr: 0 RxErr: 70
 184.677419 CAN 1 Status:chip status error active  - TxErr: 0 RxErr: 78
 184.677439 CAN 1 Status:chip status error active  - TxErr: 0 RxErr: 79
 184.677471 CAN 1 Status:chip status error active  - TxErr: 0 RxErr: 80
 184.677499 CAN 1 Status:chip status error active  - TxErr: 0 RxErr: 88
 184.677507 CAN 1 Status:chip status error active  - TxErr: 0 RxErr: 89
 184.677535 CAN 1 Status:chip status warning level - TxErr: 0 RxErr: 97
 184.677543 CAN 1 Status:chip status warning level - TxErr: 0 RxErr: 98
 184.677571 CAN 1 Status:chip status warning level - TxErr: 0 RxErr: 106
 184.677599 CAN 1 Status:chip status warning level - TxErr: 0 RxErr: 107
 184.677627 CAN 1 Status:chip status warning level - TxErr: 0 RxErr: 115
 184.677635 CAN 1 Status:chip status warning level - TxErr: 0 RxErr: 116
 184.677676 CAN 1 Status:chip status warning level - TxErr: 0 RxErr: 117
 184.677724 CAN 1 Status:chip status warning level - TxErr: 0 RxErr: 118
 184.677764 CAN 1 Status:chip status warning level - TxErr: 0 RxErr: 119
 184.677792 CAN 1 Status:chip status warning level - TxErr: 0 RxErr: 127
 184.677804 CAN 1 Status:chip status error passive - TxErr: 0 RxErr: 128
 184.684610 1  ErrorFrame	Flags = 0xfffe	CodeExt = 0x2223	Code = 0x88	ID = 0	DLC = 8	Position = 0	Length = 3953	Data = 0xf0  0xff  0xff  0xff  0xff  0xff  0xff  0x52
 184.684654 1  ErrorFrame	Flags = 0xfffe	CodeExt = 0x2066	Code = 0x81	ID = 0x9c000003	DLC = 8	Position = 10	Length = 47953	Data = 0xf0  0xff  0xff  0xff  0xff  0xff  0xff  0x52
 184.685182 1  ErrorFrame	Flags = 0xfffe	CodeExt = 0x223a	Code = 0x88	ID = 0x9c000003	DLC = 8	Position = 142	Length = 575953	Data = 0xf0  0xff  0xff  0xff  0xff  0xff  0xff  0x52
 184.685770 1  ErrorFrame	Flags = 0xfffe	CodeExt = 0x2229	Code = 0x88	ID = 0x9c000003	DLC = 8	Position = 289	Length = 1163953	Data = 0xf0  0xff  0xff  0xff  0xff  0xff  0xff  0x52
 184.686354 1  ErrorFrame	Flags = 0xfffe	CodeExt = 0x223a	Code = 0x88	ID = 0x9c000003	DLC = 8	Position = 435	Length = 1747953	Data = 0xf0  0xff  0xff  0xff  0xff  0xff  0xff  0x52
 184.686938 1  ErrorFrame	Flags = 0xfffe	CodeExt = 0x222a	Code = 0x88	ID = 0x9c000003	DLC = 8	Position = 581	Length = 2331953	Data = 0xf0  0xff  0xff  0xff  0xff  0xff  0xff  0x52
 184.687518 1  ErrorFrame	Flags = 0xfffe	CodeExt = 0x223a	Code = 0x88	ID = 0x9c000003	DLC = 8	Position = 726	Length = 2911953	Data = 0xf0  0xff  0xff  0xff  0xff  0xff  0xff  0x52
 184.689661 CAN 1 Status:chip status warning level - TxErr: 0 RxErr: 127
 184.689690 1  CF00400x        Rx   d 8 F1 7D FE 00 FE FF F0 FF  Length = 551789 BitCount = 142 ID = 217056256x
 184.691682 CAN 1 Status:chip status warning level - TxErr: 0 RxErr: 126
 184.691710 1  18FF56FBx       Rx   d 8 00 00 00 02 00 00 00 00  Length = 571805 BitCount = 147 ID = 419387131x
 184.692470 CAN 1 Status:chip status warning level - TxErr: 0 RxErr: 125
 184.692498 1  18F0093Ex       Rx   d 8 57 7D 20 73 7D 60 7C 7A  Length = 539805 BitCount = 139 ID = 418384190x
 184.695745 CAN 1 Status:chip status warning level - TxErr: 0 RxErr: 124
 184.695774 1  18FEBF0Bx       Rx   d 8 00 00 7D 7D 7D 7D FF FF  Length = 563804 BitCount = 145 ID = 419348235x
 184.696614 CAN 1 Status:chip status warning level - TxErr: 0 RxErr: 123
 184.696643 1  C000003x        Rx   d 8 F0 FF FF FF FF FF FF 74  Length = 563789 BitCount = 145 ID = 201326595x
 184.697198 CAN 1 Status:chip status warning level - TxErr: 0 RxErr: 122
 184.697227 1  CF00203x        Rx   d 8 CC 00 00 00 FC 00 00 FF  Length = 559790 BitCount = 144 ID = 217055747x
 184.697774 CAN 1 Status:chip status warning level - TxErr: 0 RxErr: 121
 184.697803 1  18FF8703x       Rx   d 8 20 4E FF 11 FF FF FF 79  Length = 551789 BitCount = 142 ID = 419399427x
 184.699666 CAN 1 Status:chip status warning level - TxErr: 0 RxErr: 120
 184.699695 1  CF00400x        Rx   d 8 F1 7D FE 00 FE FF F0 FF  Length = 551804 BitCount = 142 ID = 217056256x
 184.700234 CAN 1 Status:chip status warning level - TxErr: 0 RxErr: 119
 184.700263 1  18EBFF27x       Rx   d 8 01 04 FF 22 EE E3 81 52  Length = 535789 BitCount = 138 ID = 418119463x
 184.700807 CAN 1 Status:chip status warning level - TxErr: 0 RxErr: 118
 184.700836 1  CFE6CEEx        Rx   d 8 3C CF CF 00 00 00 00 00  Length = 555789 BitCount = 143 ID = 218000622x
 184.701383 CAN 1 Status:chip status warning level - TxErr: 0 RxErr: 117
 184.701412 1  18F00027x       Rx   d 8 F0 7D FF FF FF FF FF 4B  Length = 559789 BitCount = 144 ID = 418381863x
 184.702059 CAN 1 Status:chip status warning level - TxErr: 0 RxErr: 116
 184.702087 1  18EBFF03x       Rx   d 8 01 D4 FF BE 00 08 02 01  Length = 551306 BitCount = 142 ID = 418119427x
 184.702615 CAN 1 Status:chip status warning level - TxErr: 0 RxErr: 115
 184.702644 1  18F0093Ex       Rx   d 8 57 7D 20 73 7D 60 7C 7A  Length = 539805 BitCount = 139 ID = 418384190x
 184.706235 CAN 1 Status:chip status warning level - TxErr: 0 RxErr: 114
 184.706264 1  C000003x        Rx   d 8 F0 FF FF FF FF FF FF 05  Length = 563301 BitCount = 145 ID = 201326595x
 184.706819 CAN 1 Status:chip status warning level - TxErr: 0 RxErr: 113
 184.706848 1  CF00203x        Rx   d 8 CC 00 00 00 FC 00 00 FF  Length = 559317 BitCount = 144 ID = 217055747x
 184.707395 CAN 1 Status:chip status warning level - TxErr: 0 RxErr: 112
 184.707424 1  18FF8703x       Rx   d 8 20 4E FF 11 FF FF FF 8A  Length = 551805 BitCount = 142 ID = 419399427x
 184.709719 CAN 1 Status:chip status warning level - TxErr: 0 RxErr: 111
 184.709748 1  CF00400x        Rx   d 8 F1 7D FE 00 FE FF F0 FF  Length = 551789 BitCount = 142 ID = 217056256x
 184.712472 CAN 1 Status:chip status warning level - TxErr: 0 RxErr: 110
 184.712501 1  18F0093Ex       Rx   d 8 57 7D 20 73 7D 75 7C 7A  Length = 535790 BitCount = 138 ID = 418384190x
 184.716740 CAN 1 Status:chip status warning level - TxErr: 0 RxErr: 109
 184.716769 1  C000003x        Rx   d 8 F0 FF FF FF FF FF FF 16  Length = 559789 BitCount = 144 ID = 201326595x
 184.717320 CAN 1 Status:chip status warning level - TxErr: 0 RxErr: 108
 184.717349 1  18FEAD0Bx       Rx   d 8 00 00 00 00 00 00 FF FF  Length = 563789 BitCount = 145 ID = 419343627x
 184.717895 CAN 1 Status:chip status warning level - TxErr: 0 RxErr: 107
 184.717924 1  CF00203x        Rx   d 8 CC 00 00 00 FC 00 00 FF  Length = 559301 BitCount = 144 ID = 217055747x
 184.718476 CAN 1 Status:chip status warning level - TxErr: 0 RxErr: 106
 184.718505 1  18FEBF0Bx       Rx   d 8 00 00 7D 7D 7D 7D FF FF  Length = 563789 BitCount = 145 ID = 419348235x
 184.719044 CAN 1 Status:chip status warning level - TxErr: 0 RxErr: 105
 184.719073 1  18FF8703x       Rx   d 8 20 4E FF 11 FF FF FF 9B  Length = 551790 BitCount = 142 ID = 419399427x
 184.719821 CAN 1 Status:chip status warning level - TxErr: 0 RxErr: 104
